T3210 347:997.254   SEGGER J-Link V6.90 Log File
T3210 347:997.307   DLL Compiled: Dec 11 2020 17:08:01
T3210 347:997.314   Logging started @ 2021-03-19 09:32
T3210 347:997.319 - 199750.152ms
T3210 347:997.333 JLINK_SetWarnOutHandler(...)
T3210 347:997.338 - 0.007ms
T3210 347:997.347 JLINK_OpenEx(...)
T3210 347:998.775   Firmware: J-Link V9 compiled Dec 13 2019 11:14:50
T3210 347:998.956   Decompressing FW timestamp took 155 us
T3210 348:006.019   Hardware: V9.20
T3210 348:006.034   S/N: 4294967295
T3210 348:006.041   OEM: SEGGER
T3210 348:006.048   Feature(s): RDI, FlashBP, FlashDL, JFlash, GDB
T3210 348:007.161   TELNET listener socket opened on port 19021
T3210 348:010.796   WEBSRV Starting webserver
T3210 348:010.937   WEBSRV Webserver running on local port 19080
T3210 348:010.947 - 13.602ms returns "O.K."
T3210 348:010.968 JLINK_GetEmuCaps()
T3210 348:010.975 - 0.009ms returns 0xB9FF7BBF
T3210 348:010.985 JLINK_TIF_GetAvailable(...)
T3210 348:011.222 - 0.243ms
T3210 348:011.239 JLINK_SetErrorOutHandler(...)
T3210 348:011.244 - 0.007ms
T3210 348:011.255 JLINK_ExecCommand("ProjectFile = "G:\STM32_CubeMX_PRJ\2021-2-18 Mult_power\MDK-ARM\JLinkSettings.ini"", ...). 
T3210 348:012.079 - 0.829ms returns 0x00
T3210 348:024.795 JLINK_ExecCommand("Device = STM32F103C8", ...). 
T3210 348:028.158   Device "STM32F103C8" selected.
T3210 348:028.468 - 3.663ms returns 0x00
T3210 348:028.495 JLINK_GetHardwareVersion()
T3210 348:028.501 - 0.008ms returns 92000
T3210 348:028.509 JLINK_GetDLLVersion()
T3210 348:028.514 - 0.007ms returns 69000
T3210 348:028.521 JLINK_GetOEMString(...)
T3210 348:028.528 JLINK_GetFirmwareString(...)
T3210 348:028.533 - 0.007ms
T3210 348:039.923 JLINK_GetDLLVersion()
T3210 348:039.935 - 0.014ms returns 69000
T3210 348:039.948 JLINK_GetCompileDateTime()
T3210 348:039.953 - 0.007ms
T3210 348:042.938 JLINK_GetFirmwareString(...)
T3210 348:042.950 - 0.015ms
T3210 348:046.963 JLINK_GetHardwareVersion()
T3210 348:046.981 - 0.020ms returns 92000
T3210 348:050.128 JLINK_GetSN()
T3210 348:050.143 - 0.017ms returns -1
T3210 348:050.150 JLINK_GetOEMString(...)
T3210 348:056.256 JLINK_TIF_Select(JLINKARM_TIF_SWD)
T3210 348:057.340 - 1.090ms returns 0x00
T3210 348:057.357 JLINK_HasError()
T3210 348:057.368 JLINK_SetSpeed(5000)
T3210 348:057.564 - 0.201ms
T3210 348:057.579 JLINK_GetId()
T3210 348:062.420   Found SW-DP with ID 0x1BA01477
T3210 348:079.128   Active read protected STM32 device detected.
This could cause problems during flash download.
Note: Unsecuring will trigger a mass erase of the internal flash.
T3210 348:082.906   Executing default behavior previously saved in the registry.
T3210 348:086.299   Device will be unsecured now.
T3210 348:151.870   Found SW-DP with ID 0x1BA01477
T3210 348:164.923   Found SW-DP with ID 0x1BA01477
T3210 348:167.165   Old FW that does not support reading DPIDR via DAP jobs
T3210 348:171.297   DPv0 detected
T3210 348:175.514   Scanning AP map to find all available APs
T3210 348:179.574   AP[1]: Stopped AP scan as end of AP map has been reached
T3210 348:183.423   AP[0]: AHB-AP (IDR: 0x14770011)
T3210 348:187.666   Iterating through AP map to find AHB-AP to use
T3210 348:191.641   AP[0]: Core found
T3210 348:194.893   AP[0]: AHB-AP ROM base: 0xE00FF000
T3210 348:200.380   CPUID register: 0x411FC231. Implementer code: 0x41 (ARM)
T3210 348:203.482   Found Cortex-M3 r1p1, Little endian.
T3210 348:304.402   -- Max. mem block: 0x00010DD0
T3210 348:304.643   CPU_ReadMem(4 bytes @ 0xE000EDF0)
T3210 348:305.125   CPU_ReadMem(4 bytes @ 0xE0002000)
T3210 348:309.361   FPUnit: 6 code (BP) slots and 2 literal slots
T3210 348:309.383   CPU_ReadMem(4 bytes @ 0xE000EDFC)
T3210 348:309.797   CPU_WriteMem(4 bytes @ 0xE000EDFC)
T3210 348:310.183   CPU_ReadMem(4 bytes @ 0xE0001000)
T3210 348:310.566   CPU_WriteMem(4 bytes @ 0xE0001000)
T3210 348:310.878   CPU_ReadMem(4 bytes @ 0xE000ED88)
T3210 348:311.172   CPU_WriteMem(4 bytes @ 0xE000ED88)
T3210 348:311.419   CPU_ReadMem(4 bytes @ 0xE000ED88)
T3210 348:311.687   CPU_WriteMem(4 bytes @ 0xE000ED88)
T3210 348:315.235   CoreSight components:
T3210 348:318.311   ROMTbl[0] @ E00FF000
T3210 348:318.330   CPU_ReadMem(64 bytes @ 0xE00FF000)
T3210 348:318.948   CPU_ReadMem(32 bytes @ 0xE000EFE0)
T3210 348:322.400   ROMTbl[0][0]: E000E000, CID: B105E00D, PID: 001BB000 SCS
T3210 348:322.417   CPU_ReadMem(32 bytes @ 0xE0001FE0)
T3210 348:327.129   ROMTbl[0][1]: E0001000, CID: B105E00D, PID: 001BB002 DWT
T3210 348:327.150   CPU_ReadMem(32 bytes @ 0xE0002FE0)
T3210 348:330.727   ROMTbl[0][2]: E0002000, CID: B105E00D, PID: 000BB003 FPB
T3210 348:330.756   CPU_ReadMem(32 bytes @ 0xE0000FE0)
T3210 348:334.661   ROMTbl[0][3]: E0000000, CID: B105E00D, PID: 001BB001 ITM
T3210 348:334.687   CPU_ReadMem(32 bytes @ 0xE0040FE0)
T3210 348:338.498   ROMTbl[0][4]: E0040000, CID: B105900D, PID: 001BB923 TPIU-Lite
T3210 348:338.775 - 281.202ms returns 0x1BA01477
T3210 348:338.793 JLINK_GetDLLVersion()
T3210 348:338.798 - 0.007ms returns 69000
T3210 348:338.811 JLINK_CORE_GetFound()
T3210 348:338.816 - 0.007ms returns 0x30000FF
T3210 348:338.825 JLINK_GetDebugInfo(0x100 = JLINKARM_ROM_TABLE_ADDR_INDEX)
T3210 348:338.831   Value=0xE00FF000
T3210 348:338.838 - 0.016ms returns 0
T3210 348:342.042 JLINK_GetDebugInfo(0x100 = JLINKARM_ROM_TABLE_ADDR_INDEX)
T3210 348:342.057   Value=0xE00FF000
T3210 348:342.065 - 0.025ms returns 0
T3210 348:342.072 JLINK_GetDebugInfo(0x101 = JLINKARM_DEBUG_INFO_ETM_ADDR_INDEX)
T3210 348:342.077   Value=0x00000000
T3210 348:342.084 - 0.014ms returns 0
T3210 348:342.097 JLINK_ReadMemEx(0xE0041FF0, 0x10 Bytes, Flags = 0x02000004)
T3210 348:342.118   CPU_ReadMem(16 bytes @ 0xE0041FF0)
T3210 348:342.471   Data:  00 00 00 00 00 00 00 00 00 00 00 00 00 00 00 00
T3210 348:342.482 - 0.386ms returns 16 (0x10)
T3210 348:342.491 JLINK_GetDebugInfo(0x102 = JLINKARM_DEBUG_INFO_MTB_ADDR_INDEX)
T3210 348:342.496   Value=0x00000000
T3210 348:342.503 - 0.014ms returns 0
T3210 348:342.509 JLINK_GetDebugInfo(0x103 = JLINKARM_DEBUG_INFO_TPIU_ADDR_INDEX)
T3210 348:342.514   Value=0xE0040000
T3210 348:342.521 - 0.014ms returns 0
T3210 348:342.527 JLINK_GetDebugInfo(0x104 = JLINKARM_DEBUG_INFO_ITM_ADDR_INDEX)
T3210 348:342.533   Value=0xE0000000
T3210 348:342.539 - 0.014ms returns 0
T3210 348:342.546 JLINK_GetDebugInfo(0x105 = JLINKARM_DEBUG_INFO_DWT_ADDR_INDEX)
T3210 348:342.551   Value=0xE0001000
T3210 348:342.557 - 0.014ms returns 0
T3210 348:342.564 JLINK_GetDebugInfo(0x106 = JLINKARM_DEBUG_INFO_FPB_ADDR_INDEX)
T3210 348:342.569   Value=0xE0002000
T3210 348:342.576 - 0.015ms returns 0
T3210 348:342.583 JLINK_GetDebugInfo(0x107 = JLINKARM_DEBUG_INFO_NVIC_ADDR_INDEX)
T3210 348:342.588   Value=0xE000E000
T3210 348:342.594 - 0.014ms returns 0
T3210 348:342.601 JLINK_GetDebugInfo(0x10C = JLINKARM_DEBUG_INFO_DBG_ADDR_INDEX)
T3210 348:342.606   Value=0xE000EDF0
T3210 348:342.612 - 0.014ms returns 0
T3210 348:342.619 JLINK_GetDebugInfo(0x01 = Unknown)
T3210 348:342.624   Value=0x00000000
T3210 348:342.631 - 0.014ms returns 0
T3210 348:342.641 JLINK_ReadMemU32(0xE000ED00, 0x1 Items)
T3210 348:342.651   CPU_ReadMem(4 bytes @ 0xE000ED00)
T3210 348:343.028   Data:  31 C2 1F 41
T3210 348:343.038   Debug reg: CPUID
T3210 348:343.044 - 0.405ms returns 1 (0x1)
T3210 348:343.052 JLINK_GetDebugInfo(0x10F = JLINKARM_DEBUG_INFO_HAS_CORTEX_M_SECURITY_EXT_INDEX)
T3210 348:343.058   Value=0x00000000
T3210 348:343.065 - 0.014ms returns 0
T3210 348:343.072 JLINK_HasError()
T3210 348:343.080 JLINK_SetResetType(JLINKARM_CM3_RESET_TYPE_NORMAL)
T3210 348:343.086 - 0.007ms returns JLINKARM_CM3_RESET_TYPE_NORMAL
T3210 348:343.093 JLINK_Reset()
T3210 348:343.103   CPU is running
T3210 348:343.111   CPU_WriteMem(4 bytes @ 0xE000EDF0)
T3210 348:343.423   CPU is running
T3210 348:343.433   CPU_WriteMem(4 bytes @ 0xE000EDFC)
T3210 348:347.369   Reset: Halt core after reset via DEMCR.VC_CORERESET.
T3210 348:351.051   Reset: Reset device via AIRCR.SYSRESETREQ.
T3210 348:351.072   CPU is running
T3210 348:351.083   CPU_WriteMem(4 bytes @ 0xE000ED0C)
T3210 348:403.926   CPU_ReadMem(4 bytes @ 0xE000EDF0)
T3210 348:404.216   CPU_ReadMem(4 bytes @ 0xE000EDF0)
T3210 348:404.537   CPU is running
T3210 348:404.550   CPU_WriteMem(4 bytes @ 0xE000EDF0)
T3210 348:404.904   CPU is running
T3210 348:404.917   CPU_WriteMem(4 bytes @ 0xE000EDFC)
T3210 348:410.467   CPU_ReadMem(4 bytes @ 0xE000EDF0)
T3210 348:413.090   CPU_WriteMem(4 bytes @ 0xE0002000)
T3210 348:413.401   CPU_ReadMem(4 bytes @ 0xE000EDFC)
T3210 348:413.806   CPU_ReadMem(4 bytes @ 0xE0001000)
T3210 348:414.205 - 71.118ms
T3210 348:414.233 JLINK_Halt()
T3210 348:414.239 - 0.008ms returns 0x00
T3210 348:414.246 JLINK_ReadMemU32(0xE000EDF0, 0x1 Items)
T3210 348:414.258   CPU_ReadMem(4 bytes @ 0xE000EDF0)
T3210 348:414.598   Data:  03 00 03 00
T3210 348:414.609   Debug reg: DHCSR
T3210 348:414.616 - 0.371ms returns 1 (0x1)
T3210 348:414.657 JLINK_WriteU32_64(0xE000EDF0, 0xA05F0003)
T3210 348:414.664   Debug reg: DHCSR
T3210 348:415.110   CPU_WriteMem(4 bytes @ 0xE000EDF0)
T3210 348:415.489 - 0.839ms returns 0 (0x00000000)
T3210 348:415.504 JLINK_WriteU32_64(0xE000EDFC, 0x01000000)
T3210 348:415.511   Debug reg: DEMCR
T3210 348:415.525   CPU_WriteMem(4 bytes @ 0xE000EDFC)
T3210 348:415.842 - 0.343ms returns 0 (0x00000000)
T3210 348:428.652 JLINK_GetHWStatus(...)
T3210 348:428.952 - 0.306ms returns 0
T3210 348:439.009 JLINK_GetNumBPUnits(Type = 0xFFFFFF00)
T3210 348:439.025 - 0.018ms returns 0x06
T3210 348:439.033 JLINK_GetNumBPUnits(Type = 0xF0)
T3210 348:439.038 - 0.007ms returns 0x2000
T3210 348:439.045 JLINK_GetNumWPUnits()
T3210 348:439.050 - 0.007ms returns 4
T3210 348:448.138 JLINK_GetSpeed()
T3210 348:448.156 - 0.020ms returns 4000
T3210 348:455.967 JLINK_ReadMemU32(0xE000E004, 0x1 Items)
T3210 348:455.994   CPU_ReadMem(4 bytes @ 0xE000E004)
T3210 348:456.261   Data:  01 00 00 00
T3210 348:456.273 - 0.309ms returns 1 (0x1)
T3210 348:456.283 JLINK_ReadMemU32(0xE000E004, 0x1 Items)
T3210 348:456.293   CPU_ReadMem(4 bytes @ 0xE000E004)
T3210 348:456.542   Data:  01 00 00 00
T3210 348:456.553 - 0.273ms returns 1 (0x1)
T3210 348:456.570 JLINK_WriteMemEx(0xE0001000, 0x0000001C Bytes, Flags = 0x02000004)
T3210 348:456.577   Data:  01 00 00 00 00 00 00 00 00 00 00 00 00 00 00 00 ...
T3210 348:456.592   CPU_WriteMem(28 bytes @ 0xE0001000)
T3210 348:456.927 - 0.362ms returns 0x1C
T3210 348:456.942 JLINK_Halt()
T3210 348:456.947 - 0.008ms returns 0x00
T3210 348:456.959 JLINK_IsHalted()
T3210 348:456.965 - 0.008ms returns TRUE
T3210 348:460.319 JLINK_WriteMem(0x20000000, 0x164 Bytes, ...)
T3210 348:460.333   Data:  00 BE 0A E0 0D 78 2D 06 68 40 08 24 40 00 00 D3 ...
T3210 348:460.766   CPU_WriteMem(356 bytes @ 0x20000000)
T3210 348:462.457 - 2.147ms returns 0x164
T3210 348:462.493 JLINK_HasError()
T3210 348:462.508 JLINK_WriteReg(R0, 0x08000000)
T3210 348:462.517 - 0.011ms returns 0
T3210 348:462.524 JLINK_WriteReg(R1, 0x044AA200)
T3210 348:462.530 - 0.008ms returns 0
T3210 348:462.536 JLINK_WriteReg(R2, 0x00000001)
T3210 348:462.542 - 0.007ms returns 0
T3210 348:462.548 JLINK_WriteReg(R3, 0x00000000)
T3210 348:462.553 - 0.007ms returns 0
T3210 348:462.560 JLINK_WriteReg(R4, 0x00000000)
T3210 348:462.565 - 0.007ms returns 0
T3210 348:462.571 JLINK_WriteReg(R5, 0x00000000)
T3210 348:462.576 - 0.007ms returns 0
T3210 348:462.583 JLINK_WriteReg(R6, 0x00000000)
T3210 348:462.588 - 0.007ms returns 0
T3210 348:462.594 JLINK_WriteReg(R7, 0x00000000)
T3210 348:462.599 - 0.007ms returns 0
T3210 348:462.606 JLINK_WriteReg(R8, 0x00000000)
T3210 348:462.611 - 0.007ms returns 0
T3210 348:462.618 JLINK_WriteReg(R9, 0x20000160)
T3210 348:462.623 - 0.007ms returns 0
T3210 348:462.629 JLINK_WriteReg(R10, 0x00000000)
T3210 348:462.634 - 0.007ms returns 0
T3210 348:462.641 JLINK_WriteReg(R11, 0x00000000)
T3210 348:462.646 - 0.007ms returns 0
T3210 348:462.652 JLINK_WriteReg(R12, 0x00000000)
T3210 348:462.658 - 0.007ms returns 0
T3210 348:462.664 JLINK_WriteReg(R13 (SP), 0x20001000)
T3210 348:462.670 - 0.008ms returns 0
T3210 348:462.676 JLINK_WriteReg(R14, 0x20000001)
T3210 348:462.681 - 0.010ms returns 0
T3210 348:462.693 JLINK_WriteReg(R15 (PC), 0x20000038)
T3210 348:462.699 - 0.008ms returns 0
T3210 348:462.705 JLINK_WriteReg(XPSR, 0x01000000)
T3210 348:462.711 - 0.007ms returns 0
T3210 348:462.717 JLINK_WriteReg(MSP, 0x20001000)
T3210 348:462.722 - 0.007ms returns 0
T3210 348:462.728 JLINK_WriteReg(PSP, 0x20001000)
T3210 348:462.734 - 0.007ms returns 0
T3210 348:462.740 JLINK_WriteReg(CFBP, 0x00000000)
T3210 348:462.745 - 0.007ms returns 0
T3210 348:462.754 JLINK_SetBPEx(Addr = 0x20000000, Type = 0xFFFFFFF2)
T3210 348:462.765   CPU_ReadMem(2 bytes @ 0x20000000)
T3210 348:463.034 - 0.288ms returns 0x00000001
T3210 348:463.052 JLINK_Go()
T3210 348:463.062   CPU_WriteMem(2 bytes @ 0x20000000)
T3210 348:463.454   CPU_ReadMem(4 bytes @ 0xE0001000)
T3210 348:463.765   CPU_WriteMem(4 bytes @ 0xE0002008)
T3210 348:463.777   CPU_WriteMem(4 bytes @ 0xE000200C)
T3210 348:463.785   CPU_WriteMem(4 bytes @ 0xE0002010)
T3210 348:463.792   CPU_WriteMem(4 bytes @ 0xE0002014)
T3210 348:463.799   CPU_WriteMem(4 bytes @ 0xE0002018)
T3210 348:463.806   CPU_WriteMem(4 bytes @ 0xE000201C)
T3210 348:464.956   CPU_WriteMem(4 bytes @ 0xE0001004)
T3210 348:467.416 - 4.373ms
T3210 348:467.436 JLINK_IsHalted()
T3210 348:469.359   CPU_ReadMem(2 bytes @ 0x20000000)
T3210 348:469.630 - 2.199ms returns TRUE
T3210 348:469.650 JLINK_ReadReg(R15 (PC))
T3210 348:469.657 - 0.010ms returns 0x20000000
T3210 348:469.666 JLINK_ClrBPEx(BPHandle = 0x00000001)
T3210 348:469.671 - 0.008ms returns 0x00
T3210 348:469.679 JLINK_ReadReg(R0)
T3210 348:469.685 - 0.008ms returns 0x00000000
T3210 348:470.013 JLINK_HasError()
T3210 348:470.024 JLINK_WriteReg(R0, 0x08000000)
T3210 348:470.031 - 0.009ms returns 0
T3210 348:470.038 JLINK_WriteReg(R1, 0x044AA200)
T3210 348:470.043 - 0.008ms returns 0
T3210 348:470.049 JLINK_WriteReg(R2, 0x00000001)
T3210 348:470.055 - 0.007ms returns 0
T3210 348:470.061 JLINK_WriteReg(R3, 0x00000000)
T3210 348:470.066 - 0.007ms returns 0
T3210 348:470.073 JLINK_WriteReg(R4, 0x00000000)
T3210 348:470.078 - 0.007ms returns 0
T3210 348:470.084 JLINK_WriteReg(R5, 0x00000000)
T3210 348:470.089 - 0.007ms returns 0
T3210 348:470.096 JLINK_WriteReg(R6, 0x00000000)
T3210 348:470.101 - 0.007ms returns 0
T3210 348:470.107 JLINK_WriteReg(R7, 0x00000000)
T3210 348:470.112 - 0.007ms returns 0
T3210 348:470.119 JLINK_WriteReg(R8, 0x00000000)
T3210 348:470.125 - 0.008ms returns 0
T3210 348:470.131 JLINK_WriteReg(R9, 0x20000160)
T3210 348:470.136 - 0.007ms returns 0
T3210 348:470.143 JLINK_WriteReg(R10, 0x00000000)
T3210 348:470.148 - 0.007ms returns 0
T3210 348:470.154 JLINK_WriteReg(R11, 0x00000000)
T3210 348:470.159 - 0.007ms returns 0
T3210 348:470.166 JLINK_WriteReg(R12, 0x00000000)
T3210 348:470.171 - 0.007ms returns 0
T3210 348:470.177 JLINK_WriteReg(R13 (SP), 0x20001000)
T3210 348:470.183 - 0.008ms returns 0
T3210 348:470.189 JLINK_WriteReg(R14, 0x20000001)
T3210 348:470.194 - 0.007ms returns 0
T3210 348:470.201 JLINK_WriteReg(R15 (PC), 0x2000007C)
T3210 348:470.206 - 0.007ms returns 0
T3210 348:470.212 JLINK_WriteReg(XPSR, 0x01000000)
T3210 348:470.217 - 0.007ms returns 0
T3210 348:470.224 JLINK_WriteReg(MSP, 0x20001000)
T3210 348:470.229 - 0.008ms returns 0
T3210 348:470.237 JLINK_WriteReg(PSP, 0x20001000)
T3210 348:470.242 - 0.007ms returns 0
T3210 348:470.248 JLINK_WriteReg(CFBP, 0x00000000)
T3210 348:470.254 - 0.007ms returns 0
T3210 348:470.260 JLINK_SetBPEx(Addr = 0x20000000, Type = 0xFFFFFFF2)
T3210 348:470.266 - 0.008ms returns 0x00000002
T3210 348:470.273 JLINK_Go()
T3210 348:470.284   CPU_ReadMem(4 bytes @ 0xE0001000)
T3210 348:472.562 - 2.295ms
T3210 348:472.575 JLINK_IsHalted()
T3210 348:472.958 - 0.388ms returns FALSE
T3210 348:472.970 JLINK_HasError()
T3210 348:486.227 JLINK_IsHalted()
T3210 348:486.576 - 0.355ms returns FALSE
T3210 348:486.590 JLINK_HasError()
T3210 348:488.255 JLINK_IsHalted()
T3210 348:488.664 - 0.415ms returns FALSE
T3210 348:488.677 JLINK_HasError()
T3210 348:490.262 JLINK_IsHalted()
T3210 348:490.567 - 0.310ms returns FALSE
T3210 348:490.610 JLINK_HasError()
T3210 348:492.241 JLINK_IsHalted()
T3210 348:492.560 - 0.324ms returns FALSE
T3210 348:492.572 JLINK_HasError()
T3210 348:494.209 JLINK_IsHalted()
T3210 348:494.566 - 0.363ms returns FALSE
T3210 348:494.579 JLINK_HasError()
T3210 348:496.205 JLINK_IsHalted()
T3210 348:498.261   CPU_ReadMem(2 bytes @ 0x20000000)
T3210 348:498.529 - 2.334ms returns TRUE
T3210 348:498.548 JLINK_ReadReg(R15 (PC))
T3210 348:498.557 - 0.011ms returns 0x20000000
T3210 348:498.564 JLINK_ClrBPEx(BPHandle = 0x00000002)
T3210 348:498.570 - 0.008ms returns 0x00
T3210 348:498.577 JLINK_ReadReg(R0)
T3210 348:498.583 - 0.008ms returns 0x00000000
T3210 348:549.919 JLINK_HasError()
T3210 348:549.942 JLINK_WriteReg(R0, 0x00000001)
T3210 348:549.952 - 0.013ms returns 0
T3210 348:549.960 JLINK_WriteReg(R1, 0x044AA200)
T3210 348:549.965 - 0.008ms returns 0
T3210 348:549.972 JLINK_WriteReg(R2, 0x00000001)
T3210 348:549.977 - 0.007ms returns 0
T3210 348:549.984 JLINK_WriteReg(R3, 0x00000000)
T3210 348:549.989 - 0.007ms returns 0
T3210 348:549.995 JLINK_WriteReg(R4, 0x00000000)
T3210 348:550.000 - 0.007ms returns 0
T3210 348:550.007 JLINK_WriteReg(R5, 0x00000000)
T3210 348:550.012 - 0.007ms returns 0
T3210 348:550.018 JLINK_WriteReg(R6, 0x00000000)
T3210 348:550.024 - 0.007ms returns 0
T3210 348:550.030 JLINK_WriteReg(R7, 0x00000000)
T3210 348:550.035 - 0.007ms returns 0
T3210 348:550.042 JLINK_WriteReg(R8, 0x00000000)
T3210 348:550.047 - 0.007ms returns 0
T3210 348:550.053 JLINK_WriteReg(R9, 0x20000160)
T3210 348:550.058 - 0.007ms returns 0
T3210 348:550.065 JLINK_WriteReg(R10, 0x00000000)
T3210 348:550.070 - 0.007ms returns 0
T3210 348:550.077 JLINK_WriteReg(R11, 0x00000000)
T3210 348:550.084 - 0.009ms returns 0
T3210 348:550.090 JLINK_WriteReg(R12, 0x00000000)
T3210 348:550.096 - 0.007ms returns 0
T3210 348:550.102 JLINK_WriteReg(R13 (SP), 0x20001000)
T3210 348:550.108 - 0.008ms returns 0
T3210 348:550.115 JLINK_WriteReg(R14, 0x20000001)
T3210 348:550.120 - 0.007ms returns 0
T3210 348:550.126 JLINK_WriteReg(R15 (PC), 0x2000006A)
T3210 348:550.132 - 0.007ms returns 0
T3210 348:550.138 JLINK_WriteReg(XPSR, 0x01000000)
T3210 348:550.143 - 0.007ms returns 0
T3210 348:550.150 JLINK_WriteReg(MSP, 0x20001000)
T3210 348:550.155 - 0.007ms returns 0
T3210 348:550.161 JLINK_WriteReg(PSP, 0x20001000)
T3210 348:550.167 - 0.007ms returns 0
T3210 348:550.173 JLINK_WriteReg(CFBP, 0x00000000)
T3210 348:550.179 - 0.007ms returns 0
T3210 348:550.185 JLINK_SetBPEx(Addr = 0x20000000, Type = 0xFFFFFFF2)
T3210 348:550.192 - 0.009ms returns 0x00000003
T3210 348:550.199 JLINK_Go()
T3210 348:550.214   CPU_ReadMem(4 bytes @ 0xE0001000)
T3210 348:552.427 - 2.234ms
T3210 348:552.440 JLINK_IsHalted()
T3210 348:554.494   CPU_ReadMem(2 bytes @ 0x20000000)
T3210 348:554.864 - 2.428ms returns TRUE
T3210 348:554.875 JLINK_ReadReg(R15 (PC))
T3210 348:554.882 - 0.010ms returns 0x20000000
T3210 348:554.889 JLINK_ClrBPEx(BPHandle = 0x00000003)
T3210 348:554.895 - 0.008ms returns 0x00
T3210 348:554.901 JLINK_ReadReg(R0)
T3210 348:554.907 - 0.007ms returns 0x00000000
T3210 348:561.523 JLINK_WriteMem(0x20000000, 0x164 Bytes, ...)
T3210 348:561.536   Data:  00 BE 0A E0 0D 78 2D 06 68 40 08 24 40 00 00 D3 ...
T3210 348:561.555   CPU_WriteMem(356 bytes @ 0x20000000)
T3210 348:563.233 - 1.717ms returns 0x164
T3210 348:563.262 JLINK_HasError()
T3210 348:563.271 JLINK_WriteReg(R0, 0x08000000)
T3210 348:563.279 - 0.010ms returns 0
T3210 348:563.285 JLINK_WriteReg(R1, 0x044AA200)
T3210 348:563.291 - 0.008ms returns 0
T3210 348:563.297 JLINK_WriteReg(R2, 0x00000002)
T3210 348:563.303 - 0.007ms returns 0
T3210 348:563.309 JLINK_WriteReg(R3, 0x00000000)
T3210 348:563.314 - 0.007ms returns 0
T3210 348:563.321 JLINK_WriteReg(R4, 0x00000000)
T3210 348:563.326 - 0.007ms returns 0
T3210 348:563.332 JLINK_WriteReg(R5, 0x00000000)
T3210 348:563.337 - 0.007ms returns 0
T3210 348:563.344 JLINK_WriteReg(R6, 0x00000000)
T3210 348:563.349 - 0.007ms returns 0
T3210 348:563.355 JLINK_WriteReg(R7, 0x00000000)
T3210 348:563.380 - 0.028ms returns 0
T3210 348:563.390 JLINK_WriteReg(R8, 0x00000000)
T3210 348:563.396 - 0.008ms returns 0
T3210 348:563.403 JLINK_WriteReg(R9, 0x20000160)
T3210 348:563.408 - 0.008ms returns 0
T3210 348:563.415 JLINK_WriteReg(R10, 0x00000000)
T3210 348:563.420 - 0.008ms returns 0
T3210 348:563.427 JLINK_WriteReg(R11, 0x00000000)
T3210 348:563.432 - 0.007ms returns 0
T3210 348:563.439 JLINK_WriteReg(R12, 0x00000000)
T3210 348:563.444 - 0.008ms returns 0
T3210 348:563.451 JLINK_WriteReg(R13 (SP), 0x20001000)
T3210 348:563.457 - 0.008ms returns 0
T3210 348:563.463 JLINK_WriteReg(R14, 0x20000001)
T3210 348:563.469 - 0.008ms returns 0
T3210 348:563.475 JLINK_WriteReg(R15 (PC), 0x20000038)
T3210 348:563.481 - 0.008ms returns 0
T3210 348:563.487 JLINK_WriteReg(XPSR, 0x01000000)
T3210 348:563.493 - 0.008ms returns 0
T3210 348:563.499 JLINK_WriteReg(MSP, 0x20001000)
T3210 348:563.505 - 0.007ms returns 0
T3210 348:563.511 JLINK_WriteReg(PSP, 0x20001000)
T3210 348:563.516 - 0.008ms returns 0
T3210 348:563.523 JLINK_WriteReg(CFBP, 0x00000000)
T3210 348:563.528 - 0.007ms returns 0
T3210 348:563.535 JLINK_SetBPEx(Addr = 0x20000000, Type = 0xFFFFFFF2)
T3210 348:563.545   CPU_ReadMem(2 bytes @ 0x20000000)
T3210 348:563.984 - 0.455ms returns 0x00000004
T3210 348:563.997 JLINK_Go()
T3210 348:564.006   CPU_WriteMem(2 bytes @ 0x20000000)
T3210 348:564.317   CPU_ReadMem(4 bytes @ 0xE0001000)
T3210 348:566.721 - 2.730ms
T3210 348:566.735 JLINK_IsHalted()
T3210 348:568.705   CPU_ReadMem(2 bytes @ 0x20000000)
T3210 348:569.003 - 2.273ms returns TRUE
T3210 348:569.015 JLINK_ReadReg(R15 (PC))
T3210 348:569.022 - 0.010ms returns 0x20000000
T3210 348:569.029 JLINK_ClrBPEx(BPHandle = 0x00000004)
T3210 348:569.034 - 0.008ms returns 0x00
T3210 348:569.041 JLINK_ReadReg(R0)
T3210 348:569.047 - 0.008ms returns 0x00000000
T3210 348:569.342 JLINK_WriteMem(0x20000164, 0x29C Bytes, ...)
T3210 348:569.351   Data:  10 11 00 20 01 01 00 08 0F 24 00 08 6B 21 00 08 ...
T3210 348:569.365   CPU_WriteMem(668 bytes @ 0x20000164)
T3210 348:572.074 - 2.738ms returns 0x29C
T3210 348:572.086 JLINK_WriteMem(0x20000400, 0x164 Bytes, ...)
T3210 348:572.092   Data:  67 EB 01 08 4F 46 22 46 01 20 00 21 00 F0 0E FA ...
T3210 348:572.104   CPU_WriteMem(356 bytes @ 0x20000400)
T3210 348:573.806 - 1.725ms returns 0x164
T3210 348:573.821 JLINK_HasError()
T3210 348:573.830 JLINK_WriteReg(R0, 0x08000000)
T3210 348:573.839 - 0.010ms returns 0
T3210 348:573.847 JLINK_WriteReg(R1, 0x00000400)
T3210 348:573.853 - 0.008ms returns 0
T3210 348:573.861 JLINK_WriteReg(R2, 0x20000164)
T3210 348:573.866 - 0.008ms returns 0
T3210 348:573.874 JLINK_WriteReg(R3, 0x00000000)
T3210 348:573.880 - 0.008ms returns 0
T3210 348:573.887 JLINK_WriteReg(R4, 0x00000000)
T3210 348:573.893 - 0.008ms returns 0
T3210 348:573.901 JLINK_WriteReg(R5, 0x00000000)
T3210 348:573.906 - 0.008ms returns 0
T3210 348:573.914 JLINK_WriteReg(R6, 0x00000000)
T3210 348:573.920 - 0.008ms returns 0
T3210 348:573.928 JLINK_WriteReg(R7, 0x00000000)
T3210 348:573.933 - 0.008ms returns 0
T3210 348:573.941 JLINK_WriteReg(R8, 0x00000000)
T3210 348:573.946 - 0.008ms returns 0
T3210 348:573.954 JLINK_WriteReg(R9, 0x20000160)
T3210 348:573.960 - 0.008ms returns 0
T3210 348:573.967 JLINK_WriteReg(R10, 0x00000000)
T3210 348:573.973 - 0.008ms returns 0
T3210 348:573.981 JLINK_WriteReg(R11, 0x00000000)
T3210 348:573.986 - 0.009ms returns 0
T3210 348:573.994 JLINK_WriteReg(R12, 0x00000000)
T3210 348:574.000 - 0.008ms returns 0
T3210 348:574.008 JLINK_WriteReg(R13 (SP), 0x20001000)
T3210 348:574.014 - 0.008ms returns 0
T3210 348:574.022 JLINK_WriteReg(R14, 0x20000001)
T3210 348:574.027 - 0.008ms returns 0
T3210 348:574.035 JLINK_WriteReg(R15 (PC), 0x200000F4)
T3210 348:574.040 - 0.008ms returns 0
T3210 348:574.048 JLINK_WriteReg(XPSR, 0x01000000)
T3210 348:574.054 - 0.008ms returns 0
T3210 348:574.061 JLINK_WriteReg(MSP, 0x20001000)
T3210 348:574.067 - 0.008ms returns 0
T3210 348:574.075 JLINK_WriteReg(PSP, 0x20001000)
T3210 348:574.084 - 0.014ms returns 0
T3210 348:574.094 JLINK_WriteReg(CFBP, 0x00000000)
T3210 348:574.100 - 0.008ms returns 0
T3210 348:574.108 JLINK_SetBPEx(Addr = 0x20000000, Type = 0xFFFFFFF2)
T3210 348:574.114 - 0.009ms returns 0x00000005
T3210 348:574.122 JLINK_Go()
T3210 348:574.134   CPU_ReadMem(4 bytes @ 0xE0001000)
T3210 348:576.389 - 2.275ms
T3210 348:576.407 JLINK_IsHalted()
T3210 348:576.783 - 0.381ms returns FALSE
T3210 348:576.796 JLINK_HasError()
T3210 348:579.995 JLINK_IsHalted()
T3210 348:580.290 - 0.301ms returns FALSE
T3210 348:580.304 JLINK_HasError()
T3210 348:582.026 JLINK_IsHalted()
T3210 348:582.447 - 0.427ms returns FALSE
T3210 348:582.460 JLINK_HasError()
T3210 348:584.036 JLINK_IsHalted()
T3210 348:584.447 - 0.418ms returns FALSE
T3210 348:584.460 JLINK_HasError()
T3210 348:585.966 JLINK_IsHalted()
T3210 348:586.275 - 0.315ms returns FALSE
T3210 348:586.288 JLINK_HasError()
T3210 348:588.030 JLINK_IsHalted()
T3210 348:588.423 - 0.399ms returns FALSE
T3210 348:588.435 JLINK_HasError()
T3210 348:589.981 JLINK_IsHalted()
T3210 348:590.344 - 0.369ms returns FALSE
T3210 348:590.357 JLINK_HasError()
T3210 348:592.005 JLINK_IsHalted()
T3210 348:592.329 - 0.329ms returns FALSE
T3210 348:592.341 JLINK_HasError()
T3210 348:593.981 JLINK_IsHalted()
T3210 348:594.288 - 0.313ms returns FALSE
T3210 348:594.301 JLINK_HasError()
T3210 348:595.996 JLINK_IsHalted()
T3210 348:596.360 - 0.370ms returns FALSE
T3210 348:596.373 JLINK_HasError()
T3210 348:597.983 JLINK_IsHalted()
T3210 348:598.258 - 0.283ms returns FALSE
T3210 348:598.274 JLINK_HasError()
T3210 348:599.932 JLINK_IsHalted()
T3210 348:600.194 - 0.268ms returns FALSE
T3210 348:600.206 JLINK_HasError()
T3210 348:601.949 JLINK_IsHalted()
T3210 348:602.239 - 0.296ms returns FALSE
T3210 348:602.252 JLINK_HasError()
T3210 348:603.920 JLINK_IsHalted()
T3210 348:604.170 - 0.256ms returns FALSE
T3210 348:604.183 JLINK_HasError()
T3210 348:605.913 JLINK_IsHalted()
T3210 348:606.174 - 0.266ms returns FALSE
T3210 348:606.186 JLINK_HasError()
T3210 348:607.907 JLINK_IsHalted()
T3210 348:609.904   CPU_ReadMem(2 bytes @ 0x20000000)
T3210 348:610.153 - 2.250ms returns TRUE
T3210 348:610.165 JLINK_ReadReg(R15 (PC))
T3210 348:610.173 - 0.011ms returns 0x20000000
T3210 348:610.181 JLINK_ClrBPEx(BPHandle = 0x00000005)
T3210 348:610.186 - 0.008ms returns 0x00
T3210 348:610.193 JLINK_ReadReg(R0)
T3210 348:610.198 - 0.007ms returns 0x00000000
T3210 348:610.660 JLINK_WriteMem(0x20000164, 0x29C Bytes, ...)
T3210 348:610.668   Data:  61 EB 02 01 00 1C 41 F5 80 13 00 18 5B 41 20 18 ...
T3210 348:610.682   CPU_WriteMem(668 bytes @ 0x20000164)
T3210 348:613.343 - 2.691ms returns 0x29C
T3210 348:613.358 JLINK_WriteMem(0x20000400, 0x164 Bytes, ...)
T3210 348:613.365   Data:  99 42 08 BF 90 42 30 BD 06 4C 07 4D 06 E0 E0 68 ...
T3210 348:613.379   CPU_WriteMem(356 bytes @ 0x20000400)
T3210 348:615.109 - 1.758ms returns 0x164
T3210 348:615.126 JLINK_HasError()
T3210 348:615.134 JLINK_WriteReg(R0, 0x08000400)
T3210 348:615.144 - 0.011ms returns 0
T3210 348:615.150 JLINK_WriteReg(R1, 0x00000400)
T3210 348:615.156 - 0.008ms returns 0
T3210 348:615.163 JLINK_WriteReg(R2, 0x20000164)
T3210 348:615.168 - 0.007ms returns 0
T3210 348:615.174 JLINK_WriteReg(R3, 0x00000000)
T3210 348:615.179 - 0.007ms returns 0
T3210 348:615.186 JLINK_WriteReg(R4, 0x00000000)
T3210 348:615.191 - 0.007ms returns 0
T3210 348:615.198 JLINK_WriteReg(R5, 0x00000000)
T3210 348:615.203 - 0.007ms returns 0
T3210 348:615.209 JLINK_WriteReg(R6, 0x00000000)
T3210 348:615.214 - 0.007ms returns 0
T3210 348:615.221 JLINK_WriteReg(R7, 0x00000000)
T3210 348:615.226 - 0.007ms returns 0
T3210 348:615.232 JLINK_WriteReg(R8, 0x00000000)
T3210 348:615.238 - 0.007ms returns 0
T3210 348:615.244 JLINK_WriteReg(R9, 0x20000160)
T3210 348:615.249 - 0.007ms returns 0
T3210 348:615.256 JLINK_WriteReg(R10, 0x00000000)
T3210 348:615.261 - 0.007ms returns 0
T3210 348:615.267 JLINK_WriteReg(R11, 0x00000000)
T3210 348:615.273 - 0.007ms returns 0
T3210 348:615.283 JLINK_WriteReg(R12, 0x00000000)
T3210 348:615.289 - 0.008ms returns 0
T3210 348:615.295 JLINK_WriteReg(R13 (SP), 0x20001000)
T3210 348:615.301 - 0.008ms returns 0
T3210 348:615.308 JLINK_WriteReg(R14, 0x20000001)
T3210 348:615.313 - 0.007ms returns 0
T3210 348:615.319 JLINK_WriteReg(R15 (PC), 0x200000F4)
T3210 348:615.325 - 0.008ms returns 0
T3210 348:615.331 JLINK_WriteReg(XPSR, 0x01000000)
T3210 348:615.337 - 0.008ms returns 0
T3210 348:615.343 JLINK_WriteReg(MSP, 0x20001000)
T3210 348:615.349 - 0.007ms returns 0
T3210 348:615.355 JLINK_WriteReg(PSP, 0x20001000)
T3210 348:615.360 - 0.007ms returns 0
T3210 348:615.367 JLINK_WriteReg(CFBP, 0x00000000)
T3210 348:615.372 - 0.007ms returns 0
T3210 348:615.378 JLINK_SetBPEx(Addr = 0x20000000, Type = 0xFFFFFFF2)
T3210 348:615.385 - 0.009ms returns 0x00000006
T3210 348:615.392 JLINK_Go()
T3210 348:615.404   CPU_ReadMem(4 bytes @ 0xE0001000)
T3210 348:617.705 - 2.319ms
T3210 348:617.718 JLINK_IsHalted()
T3210 348:618.079 - 0.366ms returns FALSE
T3210 348:618.090 JLINK_HasError()
T3210 348:619.933 JLINK_IsHalted()
T3210 348:620.225 - 0.298ms returns FALSE
T3210 348:620.237 JLINK_HasError()
T3210 348:621.870 JLINK_IsHalted()
T3210 348:622.174 - 0.310ms returns FALSE
T3210 348:622.187 JLINK_HasError()
T3210 348:623.927 JLINK_IsHalted()
T3210 348:624.288 - 0.366ms returns FALSE
T3210 348:624.300 JLINK_HasError()
T3210 348:625.889 JLINK_IsHalted()
T3210 348:626.185 - 0.301ms returns FALSE
T3210 348:626.197 JLINK_HasError()
T3210 348:627.853 JLINK_IsHalted()
T3210 348:628.133 - 0.285ms returns FALSE
T3210 348:628.146 JLINK_HasError()
T3210 348:629.905 JLINK_IsHalted()
T3210 348:630.243 - 0.344ms returns FALSE
T3210 348:630.255 JLINK_HasError()
T3210 348:631.874 JLINK_IsHalted()
T3210 348:632.296 - 0.429ms returns FALSE
T3210 348:632.310 JLINK_HasError()
T3210 348:633.899 JLINK_IsHalted()
T3210 348:634.208 - 0.315ms returns FALSE
T3210 348:634.220 JLINK_HasError()
T3210 348:635.870 JLINK_IsHalted()
T3210 348:636.274 - 0.410ms returns FALSE
T3210 348:636.286 JLINK_HasError()
T3210 348:637.827 JLINK_IsHalted()
T3210 348:638.119 - 0.299ms returns FALSE
T3210 348:638.133 JLINK_HasError()
T3210 348:639.854 JLINK_IsHalted()
T3210 348:640.142 - 0.293ms returns FALSE
T3210 348:640.154 JLINK_HasError()
T3210 348:641.888 JLINK_IsHalted()
T3210 348:642.250 - 0.369ms returns FALSE
T3210 348:642.263 JLINK_HasError()
T3210 348:643.868 JLINK_IsHalted()
T3210 348:644.273 - 0.411ms returns FALSE
T3210 348:644.285 JLINK_HasError()
T3210 348:645.839 JLINK_IsHalted()
T3210 348:646.089 - 0.255ms returns FALSE
T3210 348:646.100 JLINK_HasError()
T3210 348:647.834 JLINK_IsHalted()
T3210 348:648.165 - 0.336ms returns FALSE
T3210 348:648.177 JLINK_HasError()
T3210 348:649.854 JLINK_IsHalted()
T3210 348:651.999   CPU_ReadMem(2 bytes @ 0x20000000)
T3210 348:652.335 - 2.487ms returns TRUE
T3210 348:652.348 JLINK_ReadReg(R15 (PC))
T3210 348:652.356 - 0.011ms returns 0x20000000
T3210 348:652.363 JLINK_ClrBPEx(BPHandle = 0x00000006)
T3210 348:652.369 - 0.008ms returns 0x00
T3210 348:652.376 JLINK_ReadReg(R0)
T3210 348:652.381 - 0.007ms returns 0x00000000
T3210 348:652.922 JLINK_WriteMem(0x20000164, 0x29C Bytes, ...)
T3210 348:652.931   Data:  CB 1A 92 1C 03 E0 13 F8 01 5B 01 F8 01 5B 52 1E ...
T3210 348:652.946   CPU_WriteMem(668 bytes @ 0x20000164)
T3210 348:655.696 - 2.781ms returns 0x29C
T3210 348:655.711 JLINK_WriteMem(0x20000400, 0x164 Bytes, ...)
T3210 348:655.717   Data:  20 F0 02 00 40 F0 10 00 A0 62 84 F8 24 50 01 20 ...
T3210 348:655.731   CPU_WriteMem(356 bytes @ 0x20000400)
T3210 348:657.381 - 1.675ms returns 0x164
T3210 348:657.395 JLINK_HasError()
T3210 348:657.403 JLINK_WriteReg(R0, 0x08000800)
T3210 348:657.411 - 0.010ms returns 0
T3210 348:657.418 JLINK_WriteReg(R1, 0x00000400)
T3210 348:657.423 - 0.008ms returns 0
T3210 348:657.430 JLINK_WriteReg(R2, 0x20000164)
T3210 348:657.435 - 0.007ms returns 0
T3210 348:657.443 JLINK_WriteReg(R3, 0x00000000)
T3210 348:657.448 - 0.007ms returns 0
T3210 348:657.490 JLINK_WriteReg(R4, 0x00000000)
T3210 348:657.498 - 0.010ms returns 0
T3210 348:657.505 JLINK_WriteReg(R5, 0x00000000)
T3210 348:657.510 - 0.007ms returns 0
T3210 348:657.518 JLINK_WriteReg(R6, 0x00000000)
T3210 348:657.523 - 0.007ms returns 0
T3210 348:657.530 JLINK_WriteReg(R7, 0x00000000)
T3210 348:657.535 - 0.007ms returns 0
T3210 348:657.542 JLINK_WriteReg(R8, 0x00000000)
T3210 348:657.548 - 0.007ms returns 0
T3210 348:657.555 JLINK_WriteReg(R9, 0x20000160)
T3210 348:657.560 - 0.007ms returns 0
T3210 348:657.567 JLINK_WriteReg(R10, 0x00000000)
T3210 348:657.572 - 0.007ms returns 0
T3210 348:657.579 JLINK_WriteReg(R11, 0x00000000)
T3210 348:657.584 - 0.007ms returns 0
T3210 348:657.591 JLINK_WriteReg(R12, 0x00000000)
T3210 348:657.596 - 0.007ms returns 0
T3210 348:657.602 JLINK_WriteReg(R13 (SP), 0x20001000)
T3210 348:657.608 - 0.008ms returns 0
T3210 348:657.615 JLINK_WriteReg(R14, 0x20000001)
T3210 348:657.620 - 0.007ms returns 0
T3210 348:657.627 JLINK_WriteReg(R15 (PC), 0x200000F4)
T3210 348:657.632 - 0.007ms returns 0
T3210 348:657.639 JLINK_WriteReg(XPSR, 0x01000000)
T3210 348:657.644 - 0.007ms returns 0
T3210 348:657.650 JLINK_WriteReg(MSP, 0x20001000)
T3210 348:657.656 - 0.007ms returns 0
T3210 348:657.662 JLINK_WriteReg(PSP, 0x20001000)
T3210 348:657.667 - 0.007ms returns 0
T3210 348:657.675 JLINK_WriteReg(CFBP, 0x00000000)
T3210 348:657.680 - 0.007ms returns 0
T3210 348:657.688 JLINK_SetBPEx(Addr = 0x20000000, Type = 0xFFFFFFF2)
T3210 348:657.694 - 0.008ms returns 0x00000007
T3210 348:657.702 JLINK_Go()
T3210 348:657.713   CPU_ReadMem(4 bytes @ 0xE0001000)
T3210 348:660.127 - 2.432ms
T3210 348:660.142 JLINK_IsHalted()
T3210 348:660.589 - 0.453ms returns FALSE
T3210 348:660.603 JLINK_HasError()
T3210 348:661.791 JLINK_IsHalted()
T3210 348:662.074 - 0.289ms returns FALSE
T3210 348:662.087 JLINK_HasError()
T3210 348:663.798 JLINK_IsHalted()
T3210 348:664.064 - 0.273ms returns FALSE
T3210 348:664.077 JLINK_HasError()
T3210 348:665.758 JLINK_IsHalted()
T3210 348:666.083 - 0.332ms returns FALSE
T3210 348:666.097 JLINK_HasError()
T3210 348:667.774 JLINK_IsHalted()
T3210 348:668.053 - 0.284ms returns FALSE
T3210 348:668.065 JLINK_HasError()
T3210 348:669.788 JLINK_IsHalted()
T3210 348:670.078 - 0.296ms returns FALSE
T3210 348:670.091 JLINK_HasError()
T3210 348:672.801 JLINK_IsHalted()
T3210 348:673.164 - 0.369ms returns FALSE
T3210 348:673.177 JLINK_HasError()
T3210 348:674.755 JLINK_IsHalted()
T3210 348:675.077 - 0.328ms returns FALSE
T3210 348:675.089 JLINK_HasError()
T3210 348:676.720 JLINK_IsHalted()
T3210 348:676.966 - 0.250ms returns FALSE
T3210 348:676.977 JLINK_HasError()
T3210 348:678.713 JLINK_IsHalted()
T3210 348:679.011 - 0.302ms returns FALSE
T3210 348:679.022 JLINK_HasError()
T3210 348:680.759 JLINK_IsHalted()
T3210 348:681.053 - 0.300ms returns FALSE
T3210 348:681.065 JLINK_HasError()
T3210 348:682.776 JLINK_IsHalted()
T3210 348:683.117 - 0.347ms returns FALSE
T3210 348:683.130 JLINK_HasError()
T3210 348:684.734 JLINK_IsHalted()
T3210 348:684.990 - 0.263ms returns FALSE
T3210 348:685.005 JLINK_HasError()
T3210 348:687.695 JLINK_IsHalted()
T3210 348:687.979 - 0.289ms returns FALSE
T3210 348:687.991 JLINK_HasError()
T3210 348:689.684 JLINK_IsHalted()
T3210 348:690.030 - 0.352ms returns FALSE
T3210 348:690.043 JLINK_HasError()
T3210 348:691.713 JLINK_IsHalted()
T3210 348:693.775   CPU_ReadMem(2 bytes @ 0x20000000)
T3210 348:694.143 - 2.435ms returns TRUE
T3210 348:694.154 JLINK_ReadReg(R15 (PC))
T3210 348:694.161 - 0.010ms returns 0x20000000
T3210 348:694.169 JLINK_ClrBPEx(BPHandle = 0x00000007)
T3210 348:694.174 - 0.008ms returns 0x00
T3210 348:694.181 JLINK_ReadReg(R0)
T3210 348:694.186 - 0.007ms returns 0x00000000
T3210 348:694.652 JLINK_WriteMem(0x20000164, 0x29C Bytes, ...)
T3210 348:694.661   Data:  21 7B 71 B9 41 68 21 F0 20 01 41 60 A0 6A 20 F4 ...
T3210 348:694.675   CPU_WriteMem(668 bytes @ 0x20000164)
T3210 348:697.434 - 2.790ms returns 0x29C
T3210 348:697.451 JLINK_WriteMem(0x20000400, 0x164 Bytes, ...)
T3210 348:697.460   Data:  58 09 00 20 2D E9 F8 43 00 26 0D 46 04 46 00 96 ...
T3210 348:697.479   CPU_WriteMem(356 bytes @ 0x20000400)
T3210 348:699.104 - 1.662ms returns 0x164
T3210 348:699.123 JLINK_HasError()
T3210 348:699.132 JLINK_WriteReg(R0, 0x08000C00)
T3210 348:699.141 - 0.012ms returns 0
T3210 348:699.148 JLINK_WriteReg(R1, 0x00000400)
T3210 348:699.153 - 0.008ms returns 0
T3210 348:699.160 JLINK_WriteReg(R2, 0x20000164)
T3210 348:699.165 - 0.007ms returns 0
T3210 348:699.171 JLINK_WriteReg(R3, 0x00000000)
T3210 348:699.177 - 0.007ms returns 0
T3210 348:699.183 JLINK_WriteReg(R4, 0x00000000)
T3210 348:699.188 - 0.007ms returns 0
T3210 348:699.195 JLINK_WriteReg(R5, 0x00000000)
T3210 348:699.200 - 0.007ms returns 0
T3210 348:699.206 JLINK_WriteReg(R6, 0x00000000)
T3210 348:699.211 - 0.007ms returns 0
T3210 348:699.217 JLINK_WriteReg(R7, 0x00000000)
T3210 348:699.223 - 0.007ms returns 0
T3210 348:699.229 JLINK_WriteReg(R8, 0x00000000)
T3210 348:699.234 - 0.007ms returns 0
T3210 348:699.241 JLINK_WriteReg(R9, 0x20000160)
T3210 348:699.246 - 0.007ms returns 0
T3210 348:699.252 JLINK_WriteReg(R10, 0x00000000)
T3210 348:699.257 - 0.007ms returns 0
T3210 348:699.264 JLINK_WriteReg(R11, 0x00000000)
T3210 348:699.269 - 0.007ms returns 0
T3210 348:699.275 JLINK_WriteReg(R12, 0x00000000)
T3210 348:699.280 - 0.007ms returns 0
T3210 348:699.287 JLINK_WriteReg(R13 (SP), 0x20001000)
T3210 348:699.293 - 0.008ms returns 0
T3210 348:699.299 JLINK_WriteReg(R14, 0x20000001)
T3210 348:699.304 - 0.007ms returns 0
T3210 348:699.311 JLINK_WriteReg(R15 (PC), 0x200000F4)
T3210 348:699.316 - 0.008ms returns 0
T3210 348:699.323 JLINK_WriteReg(XPSR, 0x01000000)
T3210 348:699.328 - 0.007ms returns 0
T3210 348:699.334 JLINK_WriteReg(MSP, 0x20001000)
T3210 348:699.339 - 0.007ms returns 0
T3210 348:699.346 JLINK_WriteReg(PSP, 0x20001000)
T3210 348:699.351 - 0.007ms returns 0
T3210 348:699.357 JLINK_WriteReg(CFBP, 0x00000000)
T3210 348:699.362 - 0.007ms returns 0
T3210 348:699.369 JLINK_SetBPEx(Addr = 0x20000000, Type = 0xFFFFFFF2)
T3210 348:699.376 - 0.009ms returns 0x00000008
T3210 348:699.382 JLINK_Go()
T3210 348:699.395   CPU_ReadMem(4 bytes @ 0xE0001000)
T3210 348:701.603 - 2.227ms
T3210 348:701.617 JLINK_IsHalted()
T3210 348:701.980 - 0.369ms returns FALSE
T3210 348:701.993 JLINK_HasError()
T3210 348:703.648 JLINK_IsHalted()
T3210 348:703.946 - 0.302ms returns FALSE
T3210 348:703.957 JLINK_HasError()
T3210 348:705.649 JLINK_IsHalted()
T3210 348:705.904 - 0.260ms returns FALSE
T3210 348:705.917 JLINK_HasError()
T3210 348:707.674 JLINK_IsHalted()
T3210 348:708.041 - 0.373ms returns FALSE
T3210 348:708.054 JLINK_HasError()
T3210 348:709.667 JLINK_IsHalted()
T3210 348:709.978 - 0.317ms returns FALSE
T3210 348:709.990 JLINK_HasError()
T3210 348:711.691 JLINK_IsHalted()
T3210 348:712.044 - 0.360ms returns FALSE
T3210 348:712.057 JLINK_HasError()
T3210 348:713.627 JLINK_IsHalted()
T3210 348:713.881 - 0.261ms returns FALSE
T3210 348:713.896 JLINK_HasError()
T3210 348:715.620 JLINK_IsHalted()
T3210 348:715.882 - 0.267ms returns FALSE
T3210 348:715.894 JLINK_HasError()
T3210 348:717.649 JLINK_IsHalted()
T3210 348:717.926 - 0.282ms returns FALSE
T3210 348:717.937 JLINK_HasError()
T3210 348:719.633 JLINK_IsHalted()
T3210 348:719.950 - 0.321ms returns FALSE
T3210 348:719.960 JLINK_HasError()
T3210 348:721.630 JLINK_IsHalted()
T3210 348:721.949 - 0.323ms returns FALSE
T3210 348:721.960 JLINK_HasError()
T3210 348:723.626 JLINK_IsHalted()
T3210 348:723.901 - 0.279ms returns FALSE
T3210 348:723.911 JLINK_HasError()
T3210 348:725.650 JLINK_IsHalted()
T3210 348:725.929 - 0.285ms returns FALSE
T3210 348:725.942 JLINK_HasError()
T3210 348:727.616 JLINK_IsHalted()
T3210 348:727.960 - 0.349ms returns FALSE
T3210 348:727.973 JLINK_HasError()
T3210 348:729.587 JLINK_IsHalted()
T3210 348:729.867 - 0.286ms returns FALSE
T3210 348:729.880 JLINK_HasError()
T3210 348:731.583 JLINK_IsHalted()
T3210 348:731.930 - 0.353ms returns FALSE
T3210 348:731.944 JLINK_HasError()
T3210 348:733.597 JLINK_IsHalted()
T3210 348:735.708   CPU_ReadMem(2 bytes @ 0x20000000)
T3210 348:736.008 - 2.416ms returns TRUE
T3210 348:736.020 JLINK_ReadReg(R15 (PC))
T3210 348:736.028 - 0.010ms returns 0x20000000
T3210 348:736.035 JLINK_ClrBPEx(BPHandle = 0x00000008)
T3210 348:736.041 - 0.008ms returns 0x00
T3210 348:736.048 JLINK_ReadReg(R0)
T3210 348:736.053 - 0.008ms returns 0x00000000
T3210 348:736.512 JLINK_WriteMem(0x20000164, 0x29C Bytes, ...)
T3210 348:736.521   Data:  0C D0 01 20 84 F8 24 00 20 46 FF F7 6D FC 05 00 ...
T3210 348:736.535   CPU_WriteMem(668 bytes @ 0x20000164)
T3210 348:739.277 - 2.771ms returns 0x29C
T3210 348:739.293 JLINK_WriteMem(0x20000400, 0x164 Bytes, ...)
T3210 348:739.299   Data:  84 F8 20 00 94 F8 21 60 00 20 01 2E 06 D0 84 F8 ...
T3210 348:739.311   CPU_WriteMem(356 bytes @ 0x20000400)
T3210 348:741.052 - 1.764ms returns 0x164
T3210 348:741.065 JLINK_HasError()
T3210 348:741.073 JLINK_WriteReg(R0, 0x08001000)
T3210 348:741.081 - 0.010ms returns 0
T3210 348:741.088 JLINK_WriteReg(R1, 0x00000400)
T3210 348:741.093 - 0.008ms returns 0
T3210 348:741.100 JLINK_WriteReg(R2, 0x20000164)
T3210 348:741.105 - 0.007ms returns 0
T3210 348:741.112 JLINK_WriteReg(R3, 0x00000000)
T3210 348:741.118 - 0.007ms returns 0
T3210 348:741.124 JLINK_WriteReg(R4, 0x00000000)
T3210 348:741.129 - 0.007ms returns 0
T3210 348:741.136 JLINK_WriteReg(R5, 0x00000000)
T3210 348:741.141 - 0.007ms returns 0
T3210 348:741.147 JLINK_WriteReg(R6, 0x00000000)
T3210 348:741.152 - 0.007ms returns 0
T3210 348:741.160 JLINK_WriteReg(R7, 0x00000000)
T3210 348:741.165 - 0.007ms returns 0
T3210 348:741.171 JLINK_WriteReg(R8, 0x00000000)
T3210 348:741.177 - 0.007ms returns 0
T3210 348:741.183 JLINK_WriteReg(R9, 0x20000160)
T3210 348:741.188 - 0.007ms returns 0
T3210 348:741.195 JLINK_WriteReg(R10, 0x00000000)
T3210 348:741.200 - 0.007ms returns 0
T3210 348:741.207 JLINK_WriteReg(R11, 0x00000000)
T3210 348:741.213 - 0.007ms returns 0
T3210 348:741.219 JLINK_WriteReg(R12, 0x00000000)
T3210 348:741.224 - 0.007ms returns 0
T3210 348:741.230 JLINK_WriteReg(R13 (SP), 0x20001000)
T3210 348:741.236 - 0.008ms returns 0
T3210 348:741.288 JLINK_WriteReg(R14, 0x20000001)
T3210 348:741.297 - 0.011ms returns 0
T3210 348:741.304 JLINK_WriteReg(R15 (PC), 0x200000F4)
T3210 348:741.309 - 0.007ms returns 0
T3210 348:741.315 JLINK_WriteReg(XPSR, 0x01000000)
T3210 348:741.321 - 0.007ms returns 0
T3210 348:741.327 JLINK_WriteReg(MSP, 0x20001000)
T3210 348:741.332 - 0.007ms returns 0
T3210 348:741.339 JLINK_WriteReg(PSP, 0x20001000)
T3210 348:741.344 - 0.007ms returns 0
T3210 348:741.351 JLINK_WriteReg(CFBP, 0x00000000)
T3210 348:741.356 - 0.007ms returns 0
T3210 348:741.363 JLINK_SetBPEx(Addr = 0x20000000, Type = 0xFFFFFFF2)
T3210 348:741.369 - 0.009ms returns 0x00000009
T3210 348:741.376 JLINK_Go()
T3210 348:741.387   CPU_ReadMem(4 bytes @ 0xE0001000)
T3210 348:743.873 - 2.503ms
T3210 348:743.887 JLINK_IsHalted()
T3210 348:744.331 - 0.450ms returns FALSE
T3210 348:744.344 JLINK_HasError()
T3210 348:745.572 JLINK_IsHalted()
T3210 348:745.956 - 0.390ms returns FALSE
T3210 348:745.969 JLINK_HasError()
T3210 348:747.571 JLINK_IsHalted()
T3210 348:747.891 - 0.327ms returns FALSE
T3210 348:747.906 JLINK_HasError()
T3210 348:749.525 JLINK_IsHalted()
T3210 348:749.821 - 0.301ms returns FALSE
T3210 348:749.832 JLINK_HasError()
T3210 348:751.518 JLINK_IsHalted()
T3210 348:751.920 - 0.406ms returns FALSE
T3210 348:751.931 JLINK_HasError()
T3210 348:753.561 JLINK_IsHalted()
T3210 348:753.885 - 0.330ms returns FALSE
T3210 348:753.897 JLINK_HasError()
T3210 348:755.510 JLINK_IsHalted()
T3210 348:755.976 - 0.472ms returns FALSE
T3210 348:755.989 JLINK_HasError()
T3210 348:757.539 JLINK_IsHalted()
T3210 348:757.919 - 0.386ms returns FALSE
T3210 348:757.932 JLINK_HasError()
T3210 348:759.532 JLINK_IsHalted()
T3210 348:759.804 - 0.277ms returns FALSE
T3210 348:759.815 JLINK_HasError()
T3210 348:761.558 JLINK_IsHalted()
T3210 348:761.913 - 0.360ms returns FALSE
T3210 348:761.928 JLINK_HasError()
T3210 348:763.517 JLINK_IsHalted()
T3210 348:763.918 - 0.407ms returns FALSE
T3210 348:763.932 JLINK_HasError()
T3210 348:765.528 JLINK_IsHalted()
T3210 348:765.847 - 0.325ms returns FALSE
T3210 348:765.861 JLINK_HasError()
T3210 348:767.521 JLINK_IsHalted()
T3210 348:767.933 - 0.418ms returns FALSE
T3210 348:767.946 JLINK_HasError()
T3210 348:769.508 JLINK_IsHalted()
T3210 348:769.917 - 0.415ms returns FALSE
T3210 348:769.931 JLINK_HasError()
T3210 348:771.483 JLINK_IsHalted()
T3210 348:771.896 - 0.420ms returns FALSE
T3210 348:771.911 JLINK_HasError()
T3210 348:773.468 JLINK_IsHalted()
T3210 348:773.742 - 0.282ms returns FALSE
T3210 348:773.757 JLINK_HasError()
T3210 348:775.490 JLINK_IsHalted()
T3210 348:777.408   CPU_ReadMem(2 bytes @ 0x20000000)
T3210 348:777.800 - 2.317ms returns TRUE
T3210 348:777.815 JLINK_ReadReg(R15 (PC))
T3210 348:777.824 - 0.011ms returns 0x20000000
T3210 348:777.831 JLINK_ClrBPEx(BPHandle = 0x00000009)
T3210 348:777.837 - 0.008ms returns 0x00
T3210 348:777.843 JLINK_ReadReg(R0)
T3210 348:777.849 - 0.007ms returns 0x00000000
T3210 348:778.410 JLINK_WriteMem(0x20000164, 0x29C Bytes, ...)
T3210 348:778.419   Data:  00 80 4D 68 ED 00 62 D5 37 4D AE 69 46 F0 01 06 ...
T3210 348:778.435   CPU_WriteMem(668 bytes @ 0x20000164)
T3210 348:781.175 - 2.775ms returns 0x29C
T3210 348:781.193 JLINK_WriteMem(0x20000400, 0x164 Bytes, ...)
T3210 348:781.199   Data:  00 20 01 27 0F E0 00 BF 00 EB 80 01 04 EB C1 01 ...
T3210 348:781.214   CPU_WriteMem(356 bytes @ 0x20000400)
T3210 348:782.909 - 1.725ms returns 0x164
T3210 348:782.927 JLINK_HasError()
T3210 348:782.936 JLINK_WriteReg(R0, 0x08001400)
T3210 348:782.944 - 0.011ms returns 0
T3210 348:782.951 JLINK_WriteReg(R1, 0x00000400)
T3210 348:782.956 - 0.007ms returns 0
T3210 348:782.963 JLINK_WriteReg(R2, 0x20000164)
T3210 348:782.968 - 0.007ms returns 0
T3210 348:782.975 JLINK_WriteReg(R3, 0x00000000)
T3210 348:782.980 - 0.007ms returns 0
T3210 348:782.986 JLINK_WriteReg(R4, 0x00000000)
T3210 348:782.991 - 0.007ms returns 0
T3210 348:782.998 JLINK_WriteReg(R5, 0x00000000)
T3210 348:783.003 - 0.007ms returns 0
T3210 348:783.009 JLINK_WriteReg(R6, 0x00000000)
T3210 348:783.014 - 0.007ms returns 0
T3210 348:783.021 JLINK_WriteReg(R7, 0x00000000)
T3210 348:783.026 - 0.007ms returns 0
T3210 348:783.033 JLINK_WriteReg(R8, 0x00000000)
T3210 348:783.038 - 0.007ms returns 0
T3210 348:783.044 JLINK_WriteReg(R9, 0x20000160)
T3210 348:783.049 - 0.007ms returns 0
T3210 348:783.056 JLINK_WriteReg(R10, 0x00000000)
T3210 348:783.061 - 0.008ms returns 0
T3210 348:783.068 JLINK_WriteReg(R11, 0x00000000)
T3210 348:783.073 - 0.008ms returns 0
T3210 348:783.079 JLINK_WriteReg(R12, 0x00000000)
T3210 348:783.085 - 0.007ms returns 0
T3210 348:783.091 JLINK_WriteReg(R13 (SP), 0x20001000)
T3210 348:783.097 - 0.008ms returns 0
T3210 348:783.103 JLINK_WriteReg(R14, 0x20000001)
T3210 348:783.108 - 0.007ms returns 0
T3210 348:783.115 JLINK_WriteReg(R15 (PC), 0x200000F4)
T3210 348:783.120 - 0.007ms returns 0
T3210 348:783.127 JLINK_WriteReg(XPSR, 0x01000000)
T3210 348:783.132 - 0.007ms returns 0
T3210 348:783.138 JLINK_WriteReg(MSP, 0x20001000)
T3210 348:783.143 - 0.007ms returns 0
T3210 348:783.150 JLINK_WriteReg(PSP, 0x20001000)
T3210 348:783.155 - 0.007ms returns 0
T3210 348:783.161 JLINK_WriteReg(CFBP, 0x00000000)
T3210 348:783.166 - 0.007ms returns 0
T3210 348:783.173 JLINK_SetBPEx(Addr = 0x20000000, Type = 0xFFFFFFF2)
T3210 348:783.179 - 0.008ms returns 0x0000000A
T3210 348:783.186 JLINK_Go()
T3210 348:783.198   CPU_ReadMem(4 bytes @ 0xE0001000)
T3210 348:785.483 - 2.304ms
T3210 348:785.498 JLINK_IsHalted()
T3210 348:785.813 - 0.320ms returns FALSE
T3210 348:785.824 JLINK_HasError()
T3210 348:788.450 JLINK_IsHalted()
T3210 348:788.761 - 0.317ms returns FALSE
T3210 348:788.774 JLINK_HasError()
T3210 348:790.416 JLINK_IsHalted()
T3210 348:790.744 - 0.335ms returns FALSE
T3210 348:790.758 JLINK_HasError()
T3210 348:792.499 JLINK_IsHalted()
T3210 348:792.801 - 0.311ms returns FALSE
T3210 348:792.818 JLINK_HasError()
T3210 348:794.435 JLINK_IsHalted()
T3210 348:794.745 - 0.315ms returns FALSE
T3210 348:794.756 JLINK_HasError()
T3210 348:796.458 JLINK_IsHalted()
T3210 348:796.783 - 0.331ms returns FALSE
T3210 348:796.796 JLINK_HasError()
T3210 348:798.430 JLINK_IsHalted()
T3210 348:798.697 - 0.273ms returns FALSE
T3210 348:798.711 JLINK_HasError()
T3210 348:800.396 JLINK_IsHalted()
T3210 348:800.723 - 0.336ms returns FALSE
T3210 348:800.740 JLINK_HasError()
T3210 348:802.388 JLINK_IsHalted()
T3210 348:802.716 - 0.333ms returns FALSE
T3210 348:802.728 JLINK_HasError()
T3210 348:804.406 JLINK_IsHalted()
T3210 348:804.717 - 0.316ms returns FALSE
T3210 348:804.728 JLINK_HasError()
T3210 348:806.427 JLINK_IsHalted()
T3210 348:806.749 - 0.327ms returns FALSE
T3210 348:806.761 JLINK_HasError()
T3210 348:808.412 JLINK_IsHalted()
T3210 348:808.759 - 0.353ms returns FALSE
T3210 348:808.771 JLINK_HasError()
T3210 348:810.385 JLINK_IsHalted()
T3210 348:810.759 - 0.378ms returns FALSE
T3210 348:810.770 JLINK_HasError()
T3210 348:812.380 JLINK_IsHalted()
T3210 348:812.714 - 0.339ms returns FALSE
T3210 348:812.725 JLINK_HasError()
T3210 348:814.358 JLINK_IsHalted()
T3210 348:814.669 - 0.317ms returns FALSE
T3210 348:814.682 JLINK_HasError()
T3210 348:816.173 JLINK_IsHalted()
T3210 348:818.264   CPU_ReadMem(2 bytes @ 0x20000000)
T3210 348:818.670 - 2.503ms returns TRUE
T3210 348:818.684 JLINK_ReadReg(R15 (PC))
T3210 348:818.693 - 0.010ms returns 0x20000000
T3210 348:818.700 JLINK_ClrBPEx(BPHandle = 0x0000000A)
T3210 348:818.705 - 0.008ms returns 0x00
T3210 348:818.712 JLINK_ReadReg(R0)
T3210 348:818.717 - 0.007ms returns 0x00000000
T3210 348:819.317 JLINK_WriteMem(0x20000164, 0x29C Bytes, ...)
T3210 348:819.326   Data:  01 02 00 00 00 10 02 40 00 1B B7 00 00 09 3D 00 ...
T3210 348:819.340   CPU_WriteMem(668 bytes @ 0x20000164)
